 ****** HSPICE -- P-2019.06-SP1-1 win64 (Sep 27 2019) ******                    
  Copyright (c) 1986 - 2025 by Synopsys, Inc. All Rights Reserved.              
  This software and the associated documentation are proprietary
  to Synopsys, Inc. This software may only be used in accordance
  with the terms and conditions of a written license agreement with
  Synopsys, Inc. All other use, reproduction, or distribution of
  this software is strictly prohibited.
  Input File: your_netlist.sp                                                   
  Command line options: D:\synopsys\Hspice_P-2019.06-SP1-1\WIN64\hspice.com -i your_netlist.sp -o D:\BSIM\test_data\your_task_batch\your_netlist.lis
  Start time: Sat Jul 26 00:25:23 2025
  lic:  
  lic: FLEXlm: SDK_12.3 
  lic: USER:   user                 HOSTNAME: DESKTOP-484LQTK 
  lic: HOSTID: "bcc746e39033"       PID:      40492 
  lic: Using FLEXlm license file: 
  lic: 27000@DESKTOP-484LQTK 
  lic: Checkout 1 hspice 
  lic: License/Maintenance for hspice will expire on 30-dec-2030/2030.12 
  lic: 1(in_use)/99(total) FLOATING license(s) on SERVER 27000@DESKTOP-484LQTK 
  lic:   
  **warning** (your_model.l:7) Model nmos_main device geometries will not be checked against the limits set by lmin, lmax, wmin and wmax. To enable this check, add a period(.) to the model name(i.e. enable model selector).
  **warning** (your_netlist.sp:19) The equation in .MEASURE cannot be a function of node voltages or branch currents. Unexpected results may incur.
  **warning** option measfile is disabled due to no .alter in the netlist
  **warning** (nmos_main:m1 (your_netlist.sp:6)) Warning: No WPE calculated, parameters SCA, SCB, SCC, SC not specified and/or SC not positive. 
  
      
 *****************************************************************
 ******  option summary
 ******
 runlvl  = 3         bypass  = 2.0000000  
 **info** dc convergence successful at Newton-Raphson method 
 **Warning**(nmos_main : m1): Vgs =      2.00     has exceeded Vgs_max =      1.98    
 **Warning**(nmos_main : m1): Vgd =      2.00     has exceeded Vgd_max =      1.98    
1****** HSPICE -- P-2019.06-SP1-1 win64 (Sep 27 2019) ******                    
 ******  
 

 ****** operating point information tnom=  25.000 temp=  25.000 ******
 ****** operating point status is all       simulation time is   0.000000e+00
    node    =voltage         node    =voltage

 +0:1       = 2.000000e+00 0:3       = 0.000000e+00


 **** voltage sources

 subckt                              
 element     0:v1          0:v3      
  volts    2.000000e+00  0.000000e+00
  current  0.000000e+00  0.000000e+00
  power    0.000000e+00  0.000000e+00

     total voltage source power dissipation=  0.000000e+00    watts




 **** mosfets


 subckt                
 element     0:m1      
 model       0:nmos_mai
 region   Linear       
  id       0.000000e+00
  ibs      3.896291e-33
  ibd      1.313759e-33
  vgs      2.000000e+00
  vds      0.000000e+00
  vbs      0.000000e+00
  vth      5.395329e-01
  vdsat    1.313190e+00
  vod      1.460467e+00
  beta     2.054996e-03
  gam eff  4.300000e-01
  gm       0.000000e+00
  gds      0.000000e+00
  gmb      0.000000e+00
  cdtot    2.843993e-11
  cgtot    2.489090e-11
  cstot    2.518416e-11
  cbtot    5.971359e-12
  cgs      1.192043e-11
  cgd      1.357253e-11



 **info** dc convergence successful at Newton-Raphson method 
 **Warning**(nmos_main : m1): Vgs =     -2.00     has exceeded Vgs_max =      1.98    
 **Warning**(nmos_main : m1): Vgd =     -2.00     has exceeded Vgd_max =      1.98    
 ******  
 

 ****** ac analysis tnom=  25.000 temp=  25.000 ******
 ****** operating point status is all       simulation time is   0.000000e+00

   *** source        0:v1 =   -2.000E+00 ***

    node    =voltage         node    =voltage

 +0:1       =-2.000000e+00 0:3       = 0.000000e+00


 **** voltage sources

 subckt                              
 element     0:v1          0:v3      
  volts   -2.000000e+00  0.000000e+00
  current  0.000000e+00  0.000000e+00
  power    0.000000e+00  0.000000e+00

     total voltage source power dissipation=  0.000000e+00    watts




 **** mosfets


 subckt                
 element     0:m1      
 model       0:nmos_mai
 region   Cutoff       
  id       0.000000e+00
  ibs      3.896291e-33
  ibd      1.313759e-33
  vgs     -2.000000e+00
  vds      0.000000e+00
  vbs      0.000000e+00
  vth      5.395329e-01
  vdsat    3.837380e-02
  vod     -2.539532e+00
  beta     2.591123e-03
  gam eff  4.300000e-01
  gm       0.000000e+00
  gds      0.000000e+00
  gmb      0.000000e+00
  cdtot    1.643275e-13
  cgtot    2.655862e-11
  cstot    2.562819e-13
  cbtot    2.673806e-11
  cgs      8.321794e-14
  cgd      5.265341e-14



 ******
 

 ****** ac analysis tnom=  25.000 temp=  25.000 ******
  *** parameter 0:v1  =  -2.000000e+00       ***
  
 cgg=-2.6559e-11

          ***** job concluded
 **info** dc convergence successful at Newton-Raphson method 
 ******  
 

 ****** ac analysis tnom=  25.000 temp=  25.000 ******
 ****** operating point status is all       simulation time is   0.000000e+00

   *** source        0:v1 =   -1.950E+00 ***

    node    =voltage         node    =voltage

 +0:1       =-1.950000e+00 0:3       = 0.000000e+00


 **** voltage sources

 subckt                              
 element     0:v1          0:v3      
  volts   -1.950000e+00  0.000000e+00
  current  0.000000e+00  0.000000e+00
  power    0.000000e+00  0.000000e+00

     total voltage source power dissipation=  0.000000e+00    watts




 **** mosfets


 subckt                
 element     0:m1      
 model       0:nmos_mai
 region   Cutoff       
  id       0.000000e+00
  ibs      3.896291e-33
  ibd      1.313759e-33
  vgs     -1.950000e+00
  vds      0.000000e+00
  vbs      0.000000e+00
  vth      5.395329e-01
  vdsat    3.837380e-02
  vod     -2.489532e+00
  beta     2.591123e-03
  gam eff  4.300000e-01
  gm       0.000000e+00
  gds      0.000000e+00
  gmb      0.000000e+00
  cdtot    1.643474e-13
  cgtot    2.647967e-11
  cstot    2.563019e-13
  cbtot    2.665916e-11
  cgs      8.314660e-14
  cgd      5.267335e-14



 ******
 

 ****** ac analysis tnom=  25.000 temp=  25.000 ******
  *** parameter 0:v1  =  -1.950000e+00       ***
  
 cgg=-2.6480e-11

          ***** job concluded
 **info** dc convergence successful at Newton-Raphson method 
 ******  
 

 ****** ac analysis tnom=  25.000 temp=  25.000 ******
 ****** operating point status is all       simulation time is   0.000000e+00

   *** source        0:v1 =   -1.900E+00 ***

    node    =voltage         node    =voltage

 +0:1       =-1.900000e+00 0:3       = 0.000000e+00


 **** voltage sources

 subckt                              
 element     0:v1          0:v3      
  volts   -1.900000e+00  0.000000e+00
  current  0.000000e+00  0.000000e+00
  power    0.000000e+00  0.000000e+00

     total voltage source power dissipation=  0.000000e+00    watts




 **** mosfets


 subckt                
 element     0:m1      
 model       0:nmos_mai
 region   Cutoff       
  id       0.000000e+00
  ibs      3.896291e-33
  ibd      1.313759e-33
  vgs     -1.900000e+00
  vds      0.000000e+00
  vbs      0.000000e+00
  vth      5.395329e-01
  vdsat    3.837380e-02
  vod     -2.439532e+00
  beta     2.591123e-03
  gam eff  4.300000e-01
  gm       0.000000e+00
  gds      0.000000e+00
  gmb      0.000000e+00
  cdtot    1.643678e-13
  cgtot    2.639922e-11
  cstot    2.563223e-13
  cbtot    2.657876e-11
  cgs      8.307402e-14
  cgd      5.269376e-14



 ******
 

 ****** ac analysis tnom=  25.000 temp=  25.000 ******
  *** parameter 0:v1  =  -1.900000e+00       ***
  
 cgg=-2.6399e-11

          ***** job concluded
 **info** dc convergence successful at Newton-Raphson method 
 ******  
 

 ****** ac analysis tnom=  25.000 temp=  25.000 ******
 ****** operating point status is all       simulation time is   0.000000e+00

   *** source        0:v1 =   -1.850E+00 ***

    node    =voltage         node    =voltage

 +0:1       =-1.850000e+00 0:3       = 0.000000e+00


 **** voltage sources

 subckt                              
 element     0:v1          0:v3      
  volts   -1.850000e+00  0.000000e+00
  current  0.000000e+00  0.000000e+00
  power    0.000000e+00  0.000000e+00

     total voltage source power dissipation=  0.000000e+00    watts




 **** mosfets


 subckt                
 element     0:m1      
 model       0:nmos_mai
 region   Cutoff       
  id       0.000000e+00
  ibs      3.896291e-33
  ibd      1.313759e-33
  vgs     -1.850000e+00
  vds      0.000000e+00
  vbs      0.000000e+00
  vth      5.395329e-01
  vdsat    3.837380e-02
  vod     -2.389532e+00
  beta     2.591123e-03
  gam eff  4.300000e-01
  gm       0.000000e+00
  gds      0.000000e+00
  gmb      0.000000e+00
  cdtot    1.643887e-13
  cgtot    2.631726e-11
  cstot    2.563432e-13
  cbtot    2.649685e-11
  cgs      8.300018e-14
  cgd      5.271467e-14



 ******
 

 ****** ac analysis tnom=  25.000 temp=  25.000 ******
  *** parameter 0:v1  =  -1.850000e+00       ***
  
 cgg=-2.6317e-11

          ***** job concluded
 **info** dc convergence successful at Newton-Raphson method 
 ******  
 

 ****** ac analysis tnom=  25.000 temp=  25.000 ******
 ****** operating point status is all       simulation time is   0.000000e+00

   *** source        0:v1 =   -1.800E+00 ***

    node    =voltage         node    =voltage

 +0:1       =-1.800000e+00 0:3       = 0.000000e+00


 **** voltage sources

 subckt                              
 element     0:v1          0:v3      
  volts   -1.800000e+00  0.000000e+00
  current  0.000000e+00  0.000000e+00
  power    0.000000e+00  0.000000e+00

     total voltage source power dissipation=  0.000000e+00    watts




 **** mosfets


 subckt                
 element     0:m1      
 model       0:nmos_mai
 region   Cutoff       
  id       0.000000e+00
  ibs      3.896291e-33
  ibd      1.313759e-33
  vgs     -1.800000e+00
  vds      0.000000e+00
  vbs      0.000000e+00
  vth      5.395329e-01
  vdsat    3.837380e-02
  vod     -2.339532e+00
  beta     2.591123e-03
  gam eff  4.300000e-01
  gm       0.000000e+00
  gds      0.000000e+00
  gmb      0.000000e+00
  cdtot    1.644101e-13
  cgtot    2.623377e-11
  cstot    2.563646e-13
  cbtot    2.641341e-11
  cgs      8.292509e-14
  cgd      5.273609e-14



 ******
 

 ****** ac analysis tnom=  25.000 temp=  25.000 ******
  *** parameter 0:v1  =  -1.800000e+00       ***
  
 cgg=-2.6234e-11

          ***** job concluded
 **info** dc convergence successful at Newton-Raphson method 
 ******  
 

 ****** ac analysis tnom=  25.000 temp=  25.000 ******
 ****** operating point status is all       simulation time is   0.000000e+00

   *** source        0:v1 =   -1.750E+00 ***

    node    =voltage         node    =voltage

 +0:1       =-1.750000e+00 0:3       = 0.000000e+00


 **** voltage sources

 subckt                              
 element     0:v1          0:v3      
  volts   -1.750000e+00  0.000000e+00
  current  0.000000e+00  0.000000e+00
  power    0.000000e+00  0.000000e+00

     total voltage source power dissipation=  0.000000e+00    watts




 **** mosfets


 subckt                
 element     0:m1      
 model       0:nmos_mai
 region   Cutoff       
  id       0.000000e+00
  ibs      3.896291e-33
  ibd      1.313759e-33
  vgs     -1.750000e+00
  vds      0.000000e+00
  vbs      0.000000e+00
  vth      5.395329e-01
  vdsat    3.837380e-02
  vod     -2.289532e+00
  beta     2.591123e-03
  gam eff  4.300000e-01
  gm       0.000000e+00
  gds      0.000000e+00
  gmb      0.000000e+00
  cdtot    1.644321e-13
  cgtot    2.614874e-11
  cstot    2.563866e-13
  cbtot    2.632844e-11
  cgs      8.284876e-14
  cgd      5.275806e-14



 ******
 

 ****** ac analysis tnom=  25.000 temp=  25.000 ******
  *** parameter 0:v1  =  -1.750000e+00       ***
  
 cgg=-2.6149e-11

          ***** job concluded
 **info** dc convergence successful at Newton-Raphson method 
 ******  
 

 ****** ac analysis tnom=  25.000 temp=  25.000 ******
 ****** operating point status is all       simulation time is   0.000000e+00

   *** source        0:v1 =   -1.700E+00 ***

    node    =voltage         node    =voltage

 +0:1       =-1.700000e+00 0:3       = 0.000000e+00


 **** voltage sources

 subckt                              
 element     0:v1          0:v3      
  volts   -1.700000e+00  0.000000e+00
  current  0.000000e+00  0.000000e+00
  power    0.000000e+00  0.000000e+00

     total voltage source power dissipation=  0.000000e+00    watts




 **** mosfets


 subckt                
 element     0:m1      
 model       0:nmos_mai
 region   Cutoff       
  id       0.000000e+00
  ibs      3.896291e-33
  ibd      1.313759e-33
  vgs     -1.700000e+00
  vds      0.000000e+00
  vbs      0.000000e+00
  vth      5.395329e-01
  vdsat    3.837380e-02
  vod     -2.239532e+00
  beta     2.591123e-03
  gam eff  4.300000e-01
  gm       0.000000e+00
  gds      0.000000e+00
  gmb      0.000000e+00
  cdtot    1.644546e-13
  cgtot    2.606217e-11
  cstot    2.564091e-13
  cbtot    2.624192e-11
  cgs      8.277120e-14
  cgd      5.278058e-14



 ******
 

 ****** ac analysis tnom=  25.000 temp=  25.000 ******
  *** parameter 0:v1  =  -1.700000e+00       ***
  
 cgg=-2.6062e-11

          ***** job concluded
 **info** dc convergence successful at Newton-Raphson method 
 ******  
 

 ****** ac analysis tnom=  25.000 temp=  25.000 ******
 ****** operating point status is all       simulation time is   0.000000e+00

   *** source        0:v1 =   -1.650E+00 ***

    node    =voltage         node    =voltage

 +0:1       =-1.650000e+00 0:3       = 0.000000e+00


 **** voltage sources

 subckt                              
 element     0:v1          0:v3      
  volts   -1.650000e+00  0.000000e+00
  current  0.000000e+00  0.000000e+00
  power    0.000000e+00  0.000000e+00

     total voltage source power dissipation=  0.000000e+00    watts




 **** mosfets


 subckt                
 element     0:m1      
 model       0:nmos_mai
 region   Cutoff       
  id       0.000000e+00
  ibs      3.896291e-33
  ibd      1.313759e-33
  vgs     -1.650000e+00
  vds      0.000000e+00
  vbs      0.000000e+00
  vth      5.395329e-01
  vdsat    3.837380e-02
  vod     -2.189532e+00
  beta     2.591123e-03
  gam eff  4.300000e-01
  gm       0.000000e+00
  gds      0.000000e+00
  gmb      0.000000e+00
  cdtot    1.644777e-13
  cgtot    2.597403e-11
  cstot    2.564322e-13
  cbtot    2.615384e-11
  cgs      8.269243e-14
  cgd      5.280370e-14



 ******
 

 ****** ac analysis tnom=  25.000 temp=  25.000 ******
  *** parameter 0:v1  =  -1.650000e+00       ***
  
 cgg=-2.5974e-11

          ***** job concluded
 **info** dc convergence successful at Newton-Raphson method 
 ******  
 

 ****** ac analysis tnom=  25.000 temp=  25.000 ******
 ****** operating point status is all       simulation time is   0.000000e+00

   *** source        0:v1 =   -1.600E+00 ***

    node    =voltage         node    =voltage

 +0:1       =-1.600000e+00 0:3       = 0.000000e+00


 **** voltage sources

 subckt                              
 element     0:v1          0:v3      
  volts   -1.600000e+00  0.000000e+00
  current  0.000000e+00  0.000000e+00
  power    0.000000e+00  0.000000e+00

     total voltage source power dissipation=  0.000000e+00    watts




 **** mosfets


 subckt                
 element     0:m1      
 model       0:nmos_mai
 region   Cutoff       
  id       0.000000e+00
  ibs      3.896291e-33
  ibd      1.313759e-33
  vgs     -1.600000e+00
  vds      0.000000e+00
  vbs      0.000000e+00
  vth      5.395329e-01
  vdsat    3.837380e-02
  vod     -2.139532e+00
  beta     2.591123e-03
  gam eff  4.300000e-01
  gm       0.000000e+00
  gds      0.000000e+00
  gmb      0.000000e+00
  cdtot    1.645015e-13
  cgtot    2.587923e-11
  cstot    2.564559e-13
  cbtot    2.605910e-11
  cgs      8.260657e-14
  cgd      5.282742e-14



 ******
 

 ****** ac analysis tnom=  25.000 temp=  25.000 ******
  *** parameter 0:v1  =  -1.600000e+00       ***
  
 cgg=-2.5879e-11

          ***** job concluded
 **info** dc convergence successful at Newton-Raphson method 
 ******  
 

 ****** ac analysis tnom=  25.000 temp=  25.000 ******
 ****** operating point status is all       simulation time is   0.000000e+00

   *** source        0:v1 =   -1.550E+00 ***

    node    =voltage         node    =voltage

 +0:1       =-1.550000e+00 0:3       = 0.000000e+00


 **** voltage sources

 subckt                              
 element     0:v1          0:v3      
  volts   -1.550000e+00  0.000000e+00
  current  0.000000e+00  0.000000e+00
  power    0.000000e+00  0.000000e+00

     total voltage source power dissipation=  0.000000e+00    watts




 **** mosfets


 subckt                
 element     0:m1      
 model       0:nmos_mai
 region   Cutoff       
  id       0.000000e+00
  ibs      3.896291e-33
  ibd      1.313759e-33
  vgs     -1.550000e+00
  vds      0.000000e+00
  vbs      0.000000e+00
  vth      5.395329e-01
  vdsat    3.837380e-02
  vod     -2.089532e+00
  beta     2.591123e-03
  gam eff  4.300000e-01
  gm       0.000000e+00
  gds      0.000000e+00
  gmb      0.000000e+00
  cdtot    1.645258e-13
  cgtot    2.577705e-11
  cstot    2.564803e-13
  cbtot    2.595699e-11
  cgs      8.251281e-14
  cgd      5.285178e-14



 ******
 

 ****** ac analysis tnom=  25.000 temp=  25.000 ******
  *** parameter 0:v1  =  -1.550000e+00       ***
  
 cgg=-2.5777e-11

          ***** job concluded
 **info** dc convergence successful at Newton-Raphson method 
 ******  
 

 ****** ac analysis tnom=  25.000 temp=  25.000 ******
 ****** operating point status is all       simulation time is   0.000000e+00

   *** source        0:v1 =   -1.500E+00 ***

    node    =voltage         node    =voltage

 +0:1       =-1.500000e+00 0:3       = 0.000000e+00


 **** voltage sources

 subckt                              
 element     0:v1          0:v3      
  volts   -1.500000e+00  0.000000e+00
  current  0.000000e+00  0.000000e+00
  power    0.000000e+00  0.000000e+00

     total voltage source power dissipation=  0.000000e+00    watts




 **** mosfets


 subckt                
 element     0:m1      
 model       0:nmos_mai
 region   Cutoff       
  id       0.000000e+00
  ibs      3.896291e-33
  ibd      1.313759e-33
  vgs     -1.500000e+00
  vds      0.000000e+00
  vbs      0.000000e+00
  vth      5.395329e-01
  vdsat    3.837380e-02
  vod     -2.039532e+00
  beta     2.591123e-03
  gam eff  4.300000e-01
  gm       0.000000e+00
  gds      0.000000e+00
  gmb      0.000000e+00
  cdtot    1.645509e-13
  cgtot    2.566934e-11
  cstot    2.565053e-13
  cbtot    2.584935e-11
  cgs      8.241333e-14
  cgd      5.287681e-14



 ******
 

 ****** ac analysis tnom=  25.000 temp=  25.000 ******
  *** parameter 0:v1  =  -1.500000e+00       ***
  
 cgg=-2.5669e-11

          ***** job concluded
 **info** dc convergence successful at Newton-Raphson method 
 ******  
 

 ****** ac analysis tnom=  25.000 temp=  25.000 ******
 ****** operating point status is all       simulation time is   0.000000e+00

   *** source        0:v1 =   -1.450E+00 ***

    node    =voltage         node    =voltage

 +0:1       =-1.450000e+00 0:3       = 0.000000e+00


 **** voltage sources

 subckt                              
 element     0:v1          0:v3      
  volts   -1.450000e+00  0.000000e+00
  current  0.000000e+00  0.000000e+00
  power    0.000000e+00  0.000000e+00

     total voltage source power dissipation=  0.000000e+00    watts




 **** mosfets


 subckt                
 element     0:m1      
 model       0:nmos_mai
 region   Cutoff       
  id       0.000000e+00
  ibs      3.896291e-33
  ibd      1.313759e-33
  vgs     -1.450000e+00
  vds      0.000000e+00
  vbs      0.000000e+00
  vth      5.395329e-01
  vdsat    3.837380e-02
  vod     -1.989532e+00
  beta     2.591123e-03
  gam eff  4.300000e-01
  gm       0.000000e+00
